
T40DC 000:003 SEGGER J-Link V6.20b Log File (0001ms, 0004ms total)
T40DC 000:003 DLL Compiled: Sep 22 2017 17:57:26 (0001ms, 0004ms total)
T40DC 000:003 Logging started @ 2018-01-12 16:36 (0001ms, 0004ms total)
T40DC 000:004 JLINK_SetWarnOutHandler(...) (0000ms, 0004ms total)
T40DC 000:004 JLINK_OpenEx(...)
Firmware: J-Link OB-SAM3U128-V2-NordicSemi compiled Jul 24 2017 17:30:12
Hardware: V1.00
S/N: 682273008
TELNET listener socket opened on port 19021WEBSRV 
Webserver running on local port 19080  returns O.K. (0011ms, 0015ms total)
T40DC 000:015 JLINK_GetEmuCaps()  returns 0xB8EA5A33 (0000ms, 0015ms total)
T40DC 000:015 JLINK_TIF_GetAvailable(...) (0000ms, 0015ms total)
T40DC 000:015 JLINK_SetErrorOutHandler(...) (0000ms, 0015ms total)
T40DC 000:015 JLINK_ExecCommand("ProjectFile = "C:\Users\mkkvj\nRF5_SDK_14.0.0_3bcc1f7\nRF5_SDK_14.0.0_3bcc1f7\examples\ble_peripheral\MyStep_counter\pca10040\s132\arm5_no_packs\JLinkSettings.ini"", ...). C:\Program Files (x86)\SEGGER\JLink_V620b\JLinkDevices.xml evaluated successfully.  returns 0x00 (0265ms, 0280ms total)
T40DC 000:287 JLINK_ExecCommand("Device = nRF52832_xxAA", ...). Device "NRF52832_XXAA" selected.  returns 0x00 (0007ms, 0287ms total)
T40DC 000:294 JLINK_ExecCommand("DisableConnectionTimeout", ...).   returns 0x01 (0000ms, 0287ms total)
T40DC 000:294 JLINK_GetHardwareVersion()  returns 0x2710 (0000ms, 0287ms total)
T40DC 000:294 JLINK_GetDLLVersion()  returns 62002 (0000ms, 0287ms total)
T40DC 000:294 JLINK_GetFirmwareString(...) (0000ms, 0287ms total)
T40DC 000:306 JLINK_GetDLLVersion()  returns 62002 (0000ms, 0287ms total)
T40DC 000:306 JLINK_GetCompileDateTime() (0000ms, 0287ms total)
T40DC 000:310 JLINK_GetFirmwareString(...) (0000ms, 0287ms total)
T40DC 000:313 JLINK_GetHardwareVersion()  returns 0x2710 (0000ms, 0287ms total)
T40DC 000:325 JLINK_TIF_Select(JLINKARM_TIF_SWD)  returns 0x00 (0001ms, 0288ms total)
T40DC 000:326 JLINK_SetSpeed(5000) (0000ms, 0288ms total)
T40DC 000:326 JLINK_GetId() >0x10B TIF>Found SW-DP with ID 0x2BA01477 >0x0D TIF> >0x28 TIF> >0x0D TIF> >0x28 TIF> >0x10B TIF>Found SW-DP with ID 0x2BA01477 >0x0D TIF> >0x28 TIF> >0x0D TIF> >0x28 TIF> >0x0D TIF> >0x28 TIF> >0x0D TIF> >0x28 TIF> >0x35 TIF> >0x0D TIF> >0x28 TIF>Scanning AP map to find all available APs >0x0D TIF> >0x28 TIF> >0x35 TIF> >0x35 TIF> >0x0D TIF> >0x28 TIF> >0x35 TIF> >0x35 TIF> >0x0D TIF> >0x28 TIF> >0x35 TIF> >0x35 TIF>AP[2]: Stopped AP scan as end of AP map has been reached
AP[0]: AHB-AP (IDR: 0x24770011)AP[1]: JTAG-AP (IDR: 0x02880000)Iterating through AP map to find AHB-AP to use >0x42 TIF> >0x28 TIF> >0x35 TIF> >0x35 TIF> >0x42 TIF> >0x28 TIF> >0x0D TIF> >0x28 TIF> >0x0D TIF> >0x28 TIF> >0x35 TIF> >0x35 TIF>AP[0]: Core foundAP[0]: AHB-AP ROM base: 0xE00FF000 >0x0D TIF> >0x28 TIF> >0x0D TIF> >0x28 TIF> >0x0D TIF> >0x28 TIF> >0x35 TIF> >0x35 TIF>CPUID register: 0x410FC241. Implementer code: 0x41 (ARM)Found Cortex-M4 r0p1, Little endian. -- CPU_ReadMem(4 bytes @ 0xE000EDF0)
 -- CPU_WriteMem(4 bytes @ 0xE000EDF0) -- CPU_ReadMem(4 bytes @ 0xE0002000)FPUnit: 6 code (BP) slots and 2 literal slots -- CPU_ReadMem(4 bytes @ 0xE000EDFC) -- CPU_WriteMem(4 bytes @ 0xE000EDFC) -- CPU_ReadMem(4 bytes @ 0xE0001000) -- CPU_WriteMem(4 bytes @ 0xE0001000) -- CPU_ReadMem(4 bytes @ 0xE000ED88) -- CPU_WriteMem(4 bytes @ 0xE000ED88) -- CPU_ReadMem(4 bytes @ 0xE000ED88) -- CPU_WriteMem(4 bytes @ 0xE000ED88)CoreSight components:ROMTbl[0] @ E00FF000 -- CPU_ReadMem(16 bytes @ 0xE00FF000)
 -- CPU_ReadMem(16 bytes @ 0xE000EFF0) -- CPU_ReadMem(16 bytes @ 0xE000EFE0)ROMTbl[0][0]: E000E000, CID: B105E00D, PID: 000BB00C SCS -- CPU_ReadMem(16 bytes @ 0xE0001FF0) -- CPU_ReadMem(16 bytes @ 0xE0001FE0)ROMTbl[0][1]: E0001000, CID: B105E00D, PID: 003BB002 DWT -- CPU_ReadMem(16 bytes @ 0xE0002FF0) -- CPU_ReadMem(16 bytes @ 0xE0002FE0)ROMTbl[0][2]: E0002000, CID: B105E00D, PID: 002BB003 FPB -- CPU_ReadMem(16 bytes @ 0xE0000FF0) -- CPU_ReadMem(16 bytes @ 0xE0000FE0)
ROMTbl[0][3]: E0000000, CID: B105E00D, PID: 003BB001 ITM -- CPU_ReadMem(16 bytes @ 0xE00FF010) -- CPU_ReadMem(16 bytes @ 0xE0040FF0) -- CPU_ReadMem(16 bytes @ 0xE0040FE0)ROMTbl[0][4]: E0040000, CID: B105900D, PID: 000BB9A1 TPIU -- CPU_ReadMem(16 bytes @ 0xE0041FF0) -- CPU_ReadMem(16 bytes @ 0xE0041FE0)ROMTbl[0][5]: E0041000, CID: B105900D, PID: 000BB925 ETM >0x35 TIF>  returns 0x2BA01477 (0250ms, 0538ms total)
T40DC 000:576 JLINK_GetDLLVersion()  returns 62002 (0000ms, 0538ms total)
T40DC 000:576 JLINK_CORE_GetFound()  returns 0xE0000FF (0000ms, 0538ms total)
T40DC 000:576 JLINK_GetDebugInfo(0x100 = JLINKARM_ROM_TABLE_ADDR_INDEX) -- Value=0xE00FF000  returns 0x00 (0000ms, 0538ms total)
T40DC 000:582 JLINK_GetDebugInfo(0x100 = JLINKARM_ROM_TABLE_ADDR_INDEX) -- Value=0xE00FF000  returns 0x00 (0000ms, 0538ms total)
T40DC 000:582 JLINK_GetDebugInfo(0x101 = JLINKARM_DEBUG_INFO_ETM_ADDR_INDEX) -- Value=0xE0041000  returns 0x00 (0000ms, 0538ms total)
T40DC 000:582 JLINK_ReadMemEx(0xE0041FD0, 0x0020 Bytes, ..., Flags = 0x02000004) -- CPU_ReadMem(32 bytes @ 0xE0041FD0) - Data: 04 00 00 00 00 00 00 00 00 00 00 00 00 00 00 00 ...  returns 0x20 (0001ms, 0539ms total)
T40DC 000:583 JLINK_GetDebugInfo(0x102 = JLINKARM_DEBUG_INFO_MTB_ADDR_INDEX) -- Value=0x00000000  returns 0x00 (0000ms, 0539ms total)
T40DC 000:583 JLINK_GetDebugInfo(0x103 = JLINKARM_DEBUG_INFO_TPIU_ADDR_INDEX) -- Value=0xE0040000  returns 0x00 (0000ms, 0539ms total)
T40DC 000:583 JLINK_GetDebugInfo(0x104 = JLINKARM_DEBUG_INFO_ITM_ADDR_INDEX) -- Value=0xE0000000  returns 0x00 (0000ms, 0539ms total)
T40DC 000:583 JLINK_GetDebugInfo(0x105 = JLINKARM_DEBUG_INFO_DWT_ADDR_INDEX) -- Value=0xE0001000  returns 0x00 (0000ms, 0539ms total)
T40DC 000:583 JLINK_GetDebugInfo(0x106 = JLINKARM_DEBUG_INFO_FPB_ADDR_INDEX) -- Value=0xE0002000  returns 0x00 (0000ms, 0539ms total)
T40DC 000:583 JLINK_GetDebugInfo(0x107 = JLINKARM_DEBUG_INFO_NVIC_ADDR_INDEX) -- Value=0xE000E000  returns 0x00 (0000ms, 0539ms total)
T40DC 000:583 JLINK_GetDebugInfo(0x10C = JLINKARM_DEBUG_INFO_DBG_ADDR_INDEX) -- Value=0xE000EDF0  returns 0x00 (0000ms, 0539ms total)
T40DC 000:583 JLINK_ReadMemU32(0xE000EF40, 0x0001 Items, ...) -- CPU_ReadMem(4 bytes @ 0xE000EF40) - Data: 21 00 11 10  returns 0x01 (0000ms, 0539ms total)
T40DC 000:583 JLINK_ReadMemU32(0xE000EF44, 0x0001 Items, ...) -- CPU_ReadMem(4 bytes @ 0xE000EF44) - Data: 11 00 00 11  returns 0x01 (0001ms, 0540ms total)
T40DC 000:584 JLINK_ReadMemU32(0xE000ED00, 0x0001 Items, ...) -- CPU_ReadMem(4 bytes @ 0xE000ED00) - Data: 41 C2 0F 41  returns 0x01 (0001ms, 0541ms total)
T40DC 000:585 JLINK_GetDebugInfo(0x10F = JLINKARM_DEBUG_INFO_HAS_CORTEX_M_SECURITY_EXT_INDEX) -- Value=0x00000000  returns 0x00 (0000ms, 0541ms total)
T40DC 000:585 JLINK_SetResetType(JLINKARM_CM3_RESET_TYPE_NORMAL)  returns JLINKARM_CM3_RESET_TYPE_NORMAL (0000ms, 0541ms total)
T40DC 000:585 JLINK_Reset() -- CPU is running -- CPU_WriteMem(4 bytes @ 0xE000EDF0) -- CPU is running -- CPU_WriteMem(4 bytes @ 0xE000EDFC)Reset: Halt core after reset via DEMCR.VC_CORERESET. >0x35 TIF>Reset: Reset device via AIRCR.SYSRESETREQ. -- CPU is running -- CPU_WriteMem(4 bytes @ 0xE000ED0C) >0x0D TIF> >0x28 TIF> -- CPU_ReadMem(4 bytes @ 0xE000EDF0) -- CPU_ReadMem(4 bytes @ 0xE000EDF0) -- CPU is running -- CPU_WriteMem(4 bytes @ 0xE000EDF0) -- CPU is running -- CPU_WriteMem(4 bytes @ 0xE000EDFC)
 -- CPU_ReadMem(4 bytes @ 0xE000EDF0) -- CPU_WriteMem(4 bytes @ 0xE0002000) -- CPU_ReadMem(4 bytes @ 0xE000EDFC) -- CPU_ReadMem(4 bytes @ 0xE0001000) (0083ms, 0624ms total)
T40DC 000:668 JLINK_Halt()  returns 0x00 (0000ms, 0624ms total)
T40DC 000:668 JLINK_ReadMemU32(0xE000EDF0, 0x0001 Items, ...) -- CPU_ReadMem(4 bytes @ 0xE000EDF0) - Data: 03 00 03 00  returns 0x01 (0001ms, 0625ms total)
T40DC 000:669 JLINK_WriteU32(0xE000EDF0, 0xA05F0003) -- CPU_WriteMem(4 bytes @ 0xE000EDF0)  returns 0x00 (0001ms, 0626ms total)
T40DC 000:670 JLINK_WriteU32(0xE000EDFC, 0x01000000) -- CPU_WriteMem(4 bytes @ 0xE000EDFC)  returns 0x00 (0000ms, 0626ms total)
T40DC 000:717 JLINK_GetHWStatus(...)  returns 0x00 (0000ms, 0627ms total)
T40DC 000:734 JLINK_GetNumBPUnits(Type = 0xFFFFFF00)  returns 0x06 (0000ms, 0627ms total)
T40DC 000:734 JLINK_GetNumBPUnits(Type = 0xF0)  returns 0x2000 (0000ms, 0627ms total)
T40DC 000:734 JLINK_GetNumWPUnits()  returns 0x04 (0000ms, 0627ms total)
T40DC 000:751 JLINK_GetSpeed()  returns 0x3E8 (0000ms, 0627ms total)
T40DC 000:758 JLINK_ReadMemU32(0xE000E004, 0x0001 Items, ...) -- CPU_ReadMem(4 bytes @ 0xE000E004) - Data: 01 00 00 00  returns 0x01 (0001ms, 0628ms total)
T40DC 000:759 JLINK_ReadMemU32(0xE000E004, 0x0001 Items, ...) -- CPU_ReadMem(4 bytes @ 0xE000E004) - Data: 01 00 00 00  returns 0x01 (0000ms, 0628ms total)
T40DC 000:759 JLINK_WriteMemEx(0xE0001000, 0x001C Bytes, ..., Flags = 0x02000004) - Data: 01 00 00 00 00 00 00 00 00 00 00 00 00 00 00 00 ... -- CPU_WriteMem(28 bytes @ 0xE0001000)  returns 0x1C (0002ms, 0630ms total)
T40DC 000:761 JLINK_Halt()  returns 0x00 (0000ms, 0630ms total)
T40DC 000:761 JLINK_IsHalted()  returns TRUE (0000ms, 0630ms total)
T40DC 000:766 JLINK_WriteMem(0x20000000, 0x0234 Bytes, ...) - Data: 00 BE 0A E0 0D 78 2D 06 68 40 08 24 40 00 00 D3 ... -- CPU_WriteMem(564 bytes @ 0x20000000)  returns 0x234 (0009ms, 0639ms total)
T40DC 000:775 JLINK_WriteReg(R0, 0x00000000)  returns 0x00 (0000ms, 0639ms total)
T40DC 000:775 JLINK_WriteReg(R1, 0x03D09000)  returns 0x00 (0000ms, 0639ms total)
T40DC 000:775 JLINK_WriteReg(R2, 0x00000001)  returns 0x00 (0000ms, 0639ms total)
T40DC 000:775 JLINK_WriteReg(R3, 0x00000000)  returns 0x00 (0000ms, 0639ms total)
T40DC 000:775 JLINK_WriteReg(R4, 0x00000000)  returns 0x00 (0000ms, 0639ms total)
T40DC 000:775 JLINK_WriteReg(R5, 0x00000000)  returns 0x00 (0000ms, 0639ms total)
T40DC 000:775 JLINK_WriteReg(R6, 0x00000000)  returns 0x00 (0000ms, 0639ms total)
T40DC 000:775 JLINK_WriteReg(R7, 0x00000000)  returns 0x00 (0000ms, 0639ms total)
T40DC 000:775 JLINK_WriteReg(R8, 0x00000000)  returns 0x00 (0000ms, 0639ms total)
T40DC 000:775 JLINK_WriteReg(R9, 0x20000230)  returns 0x00 (0000ms, 0639ms total)
T40DC 000:775 JLINK_WriteReg(R10, 0x00000000)  returns 0x00 (0000ms, 0639ms total)
T40DC 000:775 JLINK_WriteReg(R11, 0x00000000)  returns 0x00 (0000ms, 0639ms total)
T40DC 000:775 JLINK_WriteReg(R12, 0x00000000)  returns 0x00 (0000ms, 0639ms total)
T40DC 000:775 JLINK_WriteReg(R13 (SP), 0x20002000)  returns 0x00 (0000ms, 0639ms total)
T40DC 000:775 JLINK_WriteReg(R14, 0x20000001)  returns 0x00 (0000ms, 0639ms total)
T40DC 000:775 JLINK_WriteReg(R15 (PC), 0x2000003C)  returns 0x00 (0000ms, 0639ms total)
T40DC 000:775 JLINK_WriteReg(XPSR, 0x01000000)  returns 0x00 (0000ms, 0639ms total)
T40DC 000:775 JLINK_WriteReg(MSP, 0x20002000)  returns 0x00 (0000ms, 0639ms total)
T40DC 000:775 JLINK_WriteReg(PSP, 0x20002000)  returns 0x00 (0000ms, 0639ms total)
T40DC 000:775 JLINK_WriteReg(CFBP, 0x00000000)  returns 0x00 (0000ms, 0639ms total)
T40DC 000:775 JLINK_SetBPEx(Addr = 0x20000000, Type = 0xFFFFFFF2) -- CPU_ReadMem(2 bytes @ 0x20000000)  returns 0x00000001 (0001ms, 0640ms total)
T40DC 000:776 JLINK_Go() -- CPU_WriteMem(2 bytes @ 0x20000000) -- CPU_ReadMem(4 bytes @ 0xE0001000) -- CPU_WriteMem(4 bytes @ 0xE0002008) -- CPU_WriteMem(4 bytes @ 0xE000200C) -- CPU_WriteMem(4 bytes @ 0xE0002010) -- CPU_WriteMem(4 bytes @ 0xE0002014) -- CPU_WriteMem(4 bytes @ 0xE0002018) -- CPU_WriteMem(4 bytes @ 0xE000201C) -- CPU_WriteMem(4 bytes @ 0xE0001004) (0007ms, 0647ms total)
T40DC 000:784 JLINK_IsHalted() -- CPU_ReadMem(2 bytes @ 0x20000000)  returns TRUE (0007ms, 0655ms total)
T40DC 000:791 JLINK_ReadReg(R15 (PC))  returns 0x20000000 (0000ms, 0648ms total)
T40DC 000:791 JLINK_ClrBPEx(BPHandle = 0x00000001)  returns 0x00 (0000ms, 0648ms total)
T40DC 000:791 JLINK_ReadReg(R0)  returns 0x00000000 (0000ms, 0648ms total)
T40DC 000:792 JLINK_WriteReg(R0, 0x00023000)  returns 0x00 (0000ms, 0648ms total)
T40DC 000:792 JLINK_WriteReg(R1, 0x00001000)  returns 0x00 (0000ms, 0648ms total)
T40DC 000:792 JLINK_WriteReg(R2, 0x000000FF)  returns 0x00 (0000ms, 0648ms total)
T40DC 000:792 JLINK_WriteReg(R3, 0x00000000)  returns 0x00 (0000ms, 0648ms total)
T40DC 000:792 JLINK_WriteReg(R4, 0x00000000)  returns 0x00 (0000ms, 0648ms total)
T40DC 000:792 JLINK_WriteReg(R5, 0x00000000)  returns 0x00 (0000ms, 0648ms total)
T40DC 000:792 JLINK_WriteReg(R6, 0x00000000)  returns 0x00 (0000ms, 0648ms total)
T40DC 000:792 JLINK_WriteReg(R7, 0x00000000)  returns 0x00 (0000ms, 0648ms total)
T40DC 000:792 JLINK_WriteReg(R8, 0x00000000)  returns 0x00 (0000ms, 0648ms total)
T40DC 000:792 JLINK_WriteReg(R9, 0x20000230)  returns 0x00 (0000ms, 0648ms total)
T40DC 000:792 JLINK_WriteReg(R10, 0x00000000)  returns 0x00 (0001ms, 0649ms total)
T40DC 000:793 JLINK_WriteReg(R11, 0x00000000)  returns 0x00 (0000ms, 0649ms total)
T40DC 000:793 JLINK_WriteReg(R12, 0x00000000)  returns 0x00 (0000ms, 0649ms total)
T40DC 000:793 JLINK_WriteReg(R13 (SP), 0x20002000)  returns 0x00 (0000ms, 0649ms total)
T40DC 000:793 JLINK_WriteReg(R14, 0x20000001)  returns 0x00 (0000ms, 0649ms total)
T40DC 000:793 JLINK_WriteReg(R15 (PC), 0x2000011A)  returns 0x00 (0000ms, 0649ms total)
T40DC 000:793 JLINK_WriteReg(XPSR, 0x01000000)  returns 0x00 (0000ms, 0649ms total)
T40DC 000:793 JLINK_WriteReg(MSP, 0x20002000)  returns 0x00 (0000ms, 0649ms total)
T40DC 000:793 JLINK_WriteReg(PSP, 0x20002000)  returns 0x00 (0000ms, 0649ms total)
T40DC 000:793 JLINK_WriteReg(CFBP, 0x00000000)  returns 0x00 (0000ms, 0649ms total)
T40DC 000:793 JLINK_SetBPEx(Addr = 0x20000000, Type = 0xFFFFFFF2)  returns 0x00000002 (0000ms, 0649ms total)
T40DC 000:793 JLINK_Go() -- CPU_ReadMem(4 bytes @ 0xE0001000) (0004ms, 0653ms total)
T40DC 000:797 JLINK_IsHalted() -- CPU_ReadMem(2 bytes @ 0x20000000)  returns TRUE (0007ms, 0660ms total)
T40DC 000:804 JLINK_ReadReg(R15 (PC))  returns 0x20000000 (0000ms, 0653ms total)
T40DC 000:804 JLINK_ClrBPEx(BPHandle = 0x00000002)  returns 0x00 (0000ms, 0653ms total)
T40DC 000:804 JLINK_ReadReg(R0)  returns 0x00000001 (0000ms, 0653ms total)
T40DC 000:805 JLINK_WriteReg(R0, 0x00023000)  returns 0x00 (0000ms, 0654ms total)
T40DC 000:805 JLINK_WriteReg(R1, 0x00001000)  returns 0x00 (0000ms, 0654ms total)
T40DC 000:805 JLINK_WriteReg(R2, 0x000000FF)  returns 0x00 (0000ms, 0654ms total)
T40DC 000:805 JLINK_WriteReg(R3, 0x00000000)  returns 0x00 (0000ms, 0654ms total)
T40DC 000:805 JLINK_WriteReg(R4, 0x00000000)  returns 0x00 (0000ms, 0654ms total)
T40DC 000:805 JLINK_WriteReg(R5, 0x00000000)  returns 0x00 (0000ms, 0654ms total)
T40DC 000:805 JLINK_WriteReg(R6, 0x00000000)  returns 0x00 (0000ms, 0654ms total)
T40DC 000:805 JLINK_WriteReg(R7, 0x00000000)  returns 0x00 (0000ms, 0654ms total)
T40DC 000:805 JLINK_WriteReg(R8, 0x00000000)  returns 0x00 (0000ms, 0654ms total)
T40DC 000:805 JLINK_WriteReg(R9, 0x20000230)  returns 0x00 (0000ms, 0654ms total)
T40DC 000:805 JLINK_WriteReg(R10, 0x00000000)  returns 0x00 (0000ms, 0654ms total)
T40DC 000:805 JLINK_WriteReg(R11, 0x00000000)  returns 0x00 (0000ms, 0654ms total)
T40DC 000:805 JLINK_WriteReg(R12, 0x00000000)  returns 0x00 (0000ms, 0654ms total)
T40DC 000:805 JLINK_WriteReg(R13 (SP), 0x20002000)  returns 0x00 (0000ms, 0654ms total)
T40DC 000:805 JLINK_WriteReg(R14, 0x20000001)  returns 0x00 (0000ms, 0654ms total)
T40DC 000:805 JLINK_WriteReg(R15 (PC), 0x200000D8)  returns 0x00 (0000ms, 0654ms total)
T40DC 000:805 JLINK_WriteReg(XPSR, 0x01000000)  returns 0x00 (0000ms, 0654ms total)
T40DC 000:805 JLINK_WriteReg(MSP, 0x20002000)  returns 0x00 (0000ms, 0654ms total)
T40DC 000:805 JLINK_WriteReg(PSP, 0x20002000)  returns 0x00 (0000ms, 0654ms total)
T40DC 000:805 JLINK_WriteReg(CFBP, 0x00000000)  returns 0x00 (0000ms, 0654ms total)
T40DC 000:805 JLINK_SetBPEx(Addr = 0x20000000, Type = 0xFFFFFFF2)  returns 0x00000003 (0000ms, 0654ms total)
T40DC 000:805 JLINK_Go() -- CPU_ReadMem(4 bytes @ 0xE0001000) (0003ms, 0657ms total)
T40DC 000:808 JLINK_IsHalted()  returns FALSE (0001ms, 0658ms total)
T40DC 000:902 JLINK_IsHalted() -- CPU_ReadMem(2 bytes @ 0x20000000)  returns TRUE (0008ms, 0665ms total)
T40DC 000:910 JLINK_ReadReg(R15 (PC))  returns 0x20000000 (0000ms, 0657ms total)
T40DC 000:910 JLINK_ClrBPEx(BPHandle = 0x00000003)  returns 0x00 (0000ms, 0657ms total)
T40DC 000:910 JLINK_ReadReg(R0)  returns 0x00000000 (0000ms, 0657ms total)
T40DC 000:911 JLINK_WriteReg(R0, 0x00024000)  returns 0x00 (0000ms, 0657ms total)
T40DC 000:911 JLINK_WriteReg(R1, 0x00001000)  returns 0x00 (0000ms, 0657ms total)
T40DC 000:911 JLINK_WriteReg(R2, 0x000000FF)  returns 0x00 (0000ms, 0657ms total)
T40DC 000:911 JLINK_WriteReg(R3, 0x00000000)  returns 0x00 (0000ms, 0657ms total)
T40DC 000:911 JLINK_WriteReg(R4, 0x00000000)  returns 0x00 (0000ms, 0657ms total)
T40DC 000:911 JLINK_WriteReg(R5, 0x00000000)  returns 0x00 (0000ms, 0657ms total)
T40DC 000:911 JLINK_WriteReg(R6, 0x00000000)  returns 0x00 (0000ms, 0657ms total)
T40DC 000:911 JLINK_WriteReg(R7, 0x00000000)  returns 0x00 (0000ms, 0657ms total)
T40DC 000:911 JLINK_WriteReg(R8, 0x00000000)  returns 0x00 (0000ms, 0657ms total)
T40DC 000:911 JLINK_WriteReg(R9, 0x20000230)  returns 0x00 (0000ms, 0657ms total)
T40DC 000:911 JLINK_WriteReg(R10, 0x00000000)  returns 0x00 (0000ms, 0657ms total)
T40DC 000:911 JLINK_WriteReg(R11, 0x00000000)  returns 0x00 (0000ms, 0657ms total)
T40DC 000:912 JLINK_WriteReg(R12, 0x00000000)  returns 0x00 (0000ms, 0658ms total)
T40DC 000:912 JLINK_WriteReg(R13 (SP), 0x20002000)  returns 0x00 (0000ms, 0658ms total)
T40DC 000:912 JLINK_WriteReg(R14, 0x20000001)  returns 0x00 (0000ms, 0658ms total)
T40DC 000:912 JLINK_WriteReg(R15 (PC), 0x2000011A)  returns 0x00 (0000ms, 0658ms total)
T40DC 000:912 JLINK_WriteReg(XPSR, 0x01000000)  returns 0x00 (0000ms, 0658ms total)
T40DC 000:912 JLINK_WriteReg(MSP, 0x20002000)  returns 0x00 (0000ms, 0658ms total)
T40DC 000:912 JLINK_WriteReg(PSP, 0x20002000)  returns 0x00 (0000ms, 0658ms total)
T40DC 000:912 JLINK_WriteReg(CFBP, 0x00000000)  returns 0x00 (0000ms, 0658ms total)
T40DC 000:912 JLINK_SetBPEx(Addr = 0x20000000, Type = 0xFFFFFFF2)  returns 0x00000004 (0000ms, 0658ms total)
T40DC 000:912 JLINK_Go() -- CPU_ReadMem(4 bytes @ 0xE0001000) (0004ms, 0662ms total)
T40DC 000:916 JLINK_IsHalted() -- CPU_ReadMem(2 bytes @ 0x20000000)  returns TRUE (0006ms, 0668ms total)
T40DC 000:922 JLINK_ReadReg(R15 (PC))  returns 0x20000000 (0000ms, 0662ms total)
T40DC 000:922 JLINK_ClrBPEx(BPHandle = 0x00000004)  returns 0x00 (0000ms, 0662ms total)
T40DC 000:922 JLINK_ReadReg(R0)  returns 0x00000001 (0000ms, 0662ms total)
T40DC 000:922 JLINK_WriteReg(R0, 0x00024000)  returns 0x00 (0000ms, 0662ms total)
T40DC 000:922 JLINK_WriteReg(R1, 0x00001000)  returns 0x00 (0000ms, 0662ms total)
T40DC 000:922 JLINK_WriteReg(R2, 0x000000FF)  returns 0x00 (0001ms, 0663ms total)
T40DC 000:923 JLINK_WriteReg(R3, 0x00000000)  returns 0x00 (0000ms, 0663ms total)
T40DC 000:923 JLINK_WriteReg(R4, 0x00000000)  returns 0x00 (0000ms, 0663ms total)
T40DC 000:923 JLINK_WriteReg(R5, 0x00000000)  returns 0x00 (0000ms, 0663ms total)
T40DC 000:923 JLINK_WriteReg(R6, 0x00000000)  returns 0x00 (0000ms, 0663ms total)
T40DC 000:923 JLINK_WriteReg(R7, 0x00000000)  returns 0x00 (0000ms, 0663ms total)
T40DC 000:923 JLINK_WriteReg(R8, 0x00000000)  returns 0x00 (0000ms, 0663ms total)
T40DC 000:923 JLINK_WriteReg(R9, 0x20000230)  returns 0x00 (0000ms, 0663ms total)
T40DC 000:923 JLINK_WriteReg(R10, 0x00000000)  returns 0x00 (0000ms, 0663ms total)
T40DC 000:923 JLINK_WriteReg(R11, 0x00000000)  returns 0x00 (0000ms, 0663ms total)
T40DC 000:923 JLINK_WriteReg(R12, 0x00000000)  returns 0x00 (0000ms, 0663ms total)
T40DC 000:923 JLINK_WriteReg(R13 (SP), 0x20002000)  returns 0x00 (0000ms, 0663ms total)
T40DC 000:923 JLINK_WriteReg(R14, 0x20000001)  returns 0x00 (0000ms, 0663ms total)
T40DC 000:923 JLINK_WriteReg(R15 (PC), 0x200000D8)  returns 0x00 (0000ms, 0663ms total)
T40DC 000:923 JLINK_WriteReg(XPSR, 0x01000000)  returns 0x00 (0000ms, 0663ms total)
T40DC 000:923 JLINK_WriteReg(MSP, 0x20002000)  returns 0x00 (0000ms, 0663ms total)
T40DC 000:923 JLINK_WriteReg(PSP, 0x20002000)  returns 0x00 (0000ms, 0663ms total)
T40DC 000:923 JLINK_WriteReg(CFBP, 0x00000000)  returns 0x00 (0000ms, 0663ms total)
T40DC 000:923 JLINK_SetBPEx(Addr = 0x20000000, Type = 0xFFFFFFF2)  returns 0x00000005 (0000ms, 0663ms total)
T40DC 000:923 JLINK_Go() -- CPU_ReadMem(4 bytes @ 0xE0001000) (0003ms, 0666ms total)
T40DC 000:926 JLINK_IsHalted()  returns FALSE (0001ms, 0667ms total)
T40DC 000:932 JLINK_IsHalted() -- CPU_ReadMem(2 bytes @ 0x20000000)  returns TRUE (0007ms, 0673ms total)
T40DC 000:939 JLINK_ReadReg(R15 (PC))  returns 0x20000000 (0000ms, 0666ms total)
T40DC 000:939 JLINK_ClrBPEx(BPHandle = 0x00000005)  returns 0x00 (0000ms, 0666ms total)
T40DC 000:939 JLINK_ReadReg(R0)  returns 0x00000000 (0000ms, 0666ms total)
T40DC 000:941 JLINK_WriteReg(R0, 0x00025000)  returns 0x00 (0000ms, 0666ms total)
T40DC 000:941 JLINK_WriteReg(R1, 0x00001000)  returns 0x00 (0000ms, 0666ms total)
T40DC 000:941 JLINK_WriteReg(R2, 0x000000FF)  returns 0x00 (0000ms, 0666ms total)
T40DC 000:941 JLINK_WriteReg(R3, 0x00000000)  returns 0x00 (0000ms, 0666ms total)
T40DC 000:941 JLINK_WriteReg(R4, 0x00000000)  returns 0x00 (0000ms, 0666ms total)
T40DC 000:941 JLINK_WriteReg(R5, 0x00000000)  returns 0x00 (0000ms, 0666ms total)
T40DC 000:941 JLINK_WriteReg(R6, 0x00000000)  returns 0x00 (0000ms, 0666ms total)
T40DC 000:941 JLINK_WriteReg(R7, 0x00000000)  returns 0x00 (0000ms, 0666ms total)
T40DC 000:941 JLINK_WriteReg(R8, 0x00000000)  returns 0x00 (0000ms, 0666ms total)
T40DC 000:941 JLINK_WriteReg(R9, 0x20000230)  returns 0x00 (0000ms, 0666ms total)
T40DC 000:941 JLINK_WriteReg(R10, 0x00000000)  returns 0x00 (0000ms, 0666ms total)
T40DC 000:941 JLINK_WriteReg(R11, 0x00000000)  returns 0x00 (0000ms, 0666ms total)
T40DC 000:941 JLINK_WriteReg(R12, 0x00000000)  returns 0x00 (0000ms, 0666ms total)
T40DC 000:941 JLINK_WriteReg(R13 (SP), 0x20002000)  returns 0x00 (0000ms, 0666ms total)
T40DC 000:941 JLINK_WriteReg(R14, 0x20000001)  returns 0x00 (0000ms, 0666ms total)
T40DC 000:941 JLINK_WriteReg(R15 (PC), 0x2000011A)  returns 0x00 (0000ms, 0666ms total)
T40DC 000:941 JLINK_WriteReg(XPSR, 0x01000000)  returns 0x00 (0000ms, 0666ms total)
T40DC 000:941 JLINK_WriteReg(MSP, 0x20002000)  returns 0x00 (0000ms, 0666ms total)
T40DC 000:941 JLINK_WriteReg(PSP, 0x20002000)  returns 0x00 (0000ms, 0666ms total)
T40DC 000:941 JLINK_WriteReg(CFBP, 0x00000000)  returns 0x00 (0000ms, 0666ms total)
T40DC 000:941 JLINK_SetBPEx(Addr = 0x20000000, Type = 0xFFFFFFF2)  returns 0x00000006 (0000ms, 0666ms total)
T40DC 000:941 JLINK_Go() -- CPU_ReadMem(4 bytes @ 0xE0001000) (0004ms, 0670ms total)
T40DC 000:945 JLINK_IsHalted() -- CPU_ReadMem(2 bytes @ 0x20000000)  returns TRUE (0007ms, 0677ms total)
T40DC 000:952 JLINK_ReadReg(R15 (PC))  returns 0x20000000 (0000ms, 0670ms total)
T40DC 000:952 JLINK_ClrBPEx(BPHandle = 0x00000006)  returns 0x00 (0000ms, 0670ms total)
T40DC 000:952 JLINK_ReadReg(R0)  returns 0x00000001 (0000ms, 0670ms total)
T40DC 000:952 JLINK_WriteReg(R0, 0x00025000)  returns 0x00 (0000ms, 0670ms total)
T40DC 000:952 JLINK_WriteReg(R1, 0x00001000)  returns 0x00 (0000ms, 0670ms total)
T40DC 000:952 JLINK_WriteReg(R2, 0x000000FF)  returns 0x00 (0000ms, 0670ms total)
T40DC 000:952 JLINK_WriteReg(R3, 0x00000000)  returns 0x00 (0000ms, 0670ms total)
T40DC 000:952 JLINK_WriteReg(R4, 0x00000000)  returns 0x00 (0000ms, 0670ms total)
T40DC 000:952 JLINK_WriteReg(R5, 0x00000000)  returns 0x00 (0000ms, 0670ms total)
T40DC 000:952 JLINK_WriteReg(R6, 0x00000000)  returns 0x00 (0000ms, 0670ms total)
T40DC 000:952 JLINK_WriteReg(R7, 0x00000000)  returns 0x00 (0000ms, 0670ms total)
T40DC 000:952 JLINK_WriteReg(R8, 0x00000000)  returns 0x00 (0000ms, 0670ms total)
T40DC 000:952 JLINK_WriteReg(R9, 0x20000230)  returns 0x00 (0000ms, 0670ms total)
T40DC 000:952 JLINK_WriteReg(R10, 0x00000000)  returns 0x00 (0000ms, 0670ms total)
T40DC 000:952 JLINK_WriteReg(R11, 0x00000000)  returns 0x00 (0000ms, 0670ms total)
T40DC 000:952 JLINK_WriteReg(R12, 0x00000000)  returns 0x00 (0000ms, 0670ms total)
T40DC 000:952 JLINK_WriteReg(R13 (SP), 0x20002000)  returns 0x00 (0000ms, 0670ms total)
T40DC 000:952 JLINK_WriteReg(R14, 0x20000001)  returns 0x00 (0000ms, 0670ms total)
T40DC 000:952 JLINK_WriteReg(R15 (PC), 0x200000D8)  returns 0x00 (0000ms, 0670ms total)
T40DC 000:952 JLINK_WriteReg(XPSR, 0x01000000)  returns 0x00 (0000ms, 0670ms total)
T40DC 000:952 JLINK_WriteReg(MSP, 0x20002000)  returns 0x00 (0000ms, 0670ms total)
T40DC 000:952 JLINK_WriteReg(PSP, 0x20002000)  returns 0x00 (0000ms, 0670ms total)
T40DC 000:952 JLINK_WriteReg(CFBP, 0x00000000)  returns 0x00 (0000ms, 0670ms total)
T40DC 000:952 JLINK_SetBPEx(Addr = 0x20000000, Type = 0xFFFFFFF2)  returns 0x00000007 (0001ms, 0671ms total)
T40DC 000:953 JLINK_Go() -- CPU_ReadMem(4 bytes @ 0xE0001000) (0002ms, 0673ms total)
T40DC 000:955 JLINK_IsHalted()  returns FALSE (0001ms, 0674ms total)
T40DC 000:958 JLINK_IsHalted() -- CPU_ReadMem(2 bytes @ 0x20000000)  returns TRUE (0007ms, 0680ms total)
T40DC 000:965 JLINK_ReadReg(R15 (PC))  returns 0x20000000 (0000ms, 0673ms total)
T40DC 000:965 JLINK_ClrBPEx(BPHandle = 0x00000007)  returns 0x00 (0000ms, 0673ms total)
T40DC 000:965 JLINK_ReadReg(R0)  returns 0x00000000 (0000ms, 0673ms total)
T40DC 000:967 JLINK_WriteReg(R0, 0x00026000)  returns 0x00 (0000ms, 0673ms total)
T40DC 000:967 JLINK_WriteReg(R1, 0x00001000)  returns 0x00 (0000ms, 0673ms total)
T40DC 000:967 JLINK_WriteReg(R2, 0x000000FF)  returns 0x00 (0000ms, 0673ms total)
T40DC 000:967 JLINK_WriteReg(R3, 0x00000000)  returns 0x00 (0000ms, 0673ms total)
T40DC 000:967 JLINK_WriteReg(R4, 0x00000000)  returns 0x00 (0000ms, 0673ms total)
T40DC 000:967 JLINK_WriteReg(R5, 0x00000000)  returns 0x00 (0000ms, 0673ms total)
T40DC 000:967 JLINK_WriteReg(R6, 0x00000000)  returns 0x00 (0000ms, 0673ms total)
T40DC 000:967 JLINK_WriteReg(R7, 0x00000000)  returns 0x00 (0000ms, 0673ms total)
T40DC 000:967 JLINK_WriteReg(R8, 0x00000000)  returns 0x00 (0000ms, 0673ms total)
T40DC 000:967 JLINK_WriteReg(R9, 0x20000230)  returns 0x00 (0000ms, 0673ms total)
T40DC 000:967 JLINK_WriteReg(R10, 0x00000000)  returns 0x00 (0000ms, 0673ms total)
T40DC 000:967 JLINK_WriteReg(R11, 0x00000000)  returns 0x00 (0000ms, 0673ms total)
T40DC 000:967 JLINK_WriteReg(R12, 0x00000000)  returns 0x00 (0000ms, 0673ms total)
T40DC 000:967 JLINK_WriteReg(R13 (SP), 0x20002000)  returns 0x00 (0000ms, 0673ms total)
T40DC 000:967 JLINK_WriteReg(R14, 0x20000001)  returns 0x00 (0000ms, 0673ms total)
T40DC 000:967 JLINK_WriteReg(R15 (PC), 0x2000011A)  returns 0x00 (0000ms, 0673ms total)
T40DC 000:967 JLINK_WriteReg(XPSR, 0x01000000)  returns 0x00 (0000ms, 0673ms total)
T40DC 000:967 JLINK_WriteReg(MSP, 0x20002000)  returns 0x00 (0000ms, 0673ms total)
T40DC 000:967 JLINK_WriteReg(PSP, 0x20002000)  returns 0x00 (0000ms, 0673ms total)
T40DC 000:967 JLINK_WriteReg(CFBP, 0x00000000)  returns 0x00 (0000ms, 0673ms total)
T40DC 000:967 JLINK_SetBPEx(Addr = 0x20000000, Type = 0xFFFFFFF2)  returns 0x00000008 (0000ms, 0673ms total)
T40DC 000:967 JLINK_Go() -- CPU_ReadMem(4 bytes @ 0xE0001000) (0003ms, 0676ms total)
T40DC 000:970 JLINK_IsHalted() -- CPU_ReadMem(2 bytes @ 0x20000000)  returns TRUE (0007ms, 0683ms total)
T40DC 000:977 JLINK_ReadReg(R15 (PC))  returns 0x20000000 (0000ms, 0676ms total)
T40DC 000:977 JLINK_ClrBPEx(BPHandle = 0x00000008)  returns 0x00 (0000ms, 0676ms total)
T40DC 000:977 JLINK_ReadReg(R0)  returns 0x00000001 (0000ms, 0676ms total)
T40DC 000:977 JLINK_WriteReg(R0, 0x00026000)  returns 0x00 (0000ms, 0676ms total)
T40DC 000:977 JLINK_WriteReg(R1, 0x00001000)  returns 0x00 (0000ms, 0676ms total)
T40DC 000:977 JLINK_WriteReg(R2, 0x000000FF)  returns 0x00 (0000ms, 0676ms total)
T40DC 000:977 JLINK_WriteReg(R3, 0x00000000)  returns 0x00 (0000ms, 0676ms total)
T40DC 000:977 JLINK_WriteReg(R4, 0x00000000)  returns 0x00 (0000ms, 0676ms total)
T40DC 000:977 JLINK_WriteReg(R5, 0x00000000)  returns 0x00 (0000ms, 0676ms total)
T40DC 000:977 JLINK_WriteReg(R6, 0x00000000)  returns 0x00 (0000ms, 0676ms total)
T40DC 000:977 JLINK_WriteReg(R7, 0x00000000)  returns 0x00 (0001ms, 0677ms total)
T40DC 000:978 JLINK_WriteReg(R8, 0x00000000)  returns 0x00 (0000ms, 0677ms total)
T40DC 000:978 JLINK_WriteReg(R9, 0x20000230)  returns 0x00 (0000ms, 0677ms total)
T40DC 000:978 JLINK_WriteReg(R10, 0x00000000)  returns 0x00 (0000ms, 0677ms total)
T40DC 000:978 JLINK_WriteReg(R11, 0x00000000)  returns 0x00 (0000ms, 0677ms total)
T40DC 000:978 JLINK_WriteReg(R12, 0x00000000)  returns 0x00 (0000ms, 0677ms total)
T40DC 000:978 JLINK_WriteReg(R13 (SP), 0x20002000)  returns 0x00 (0000ms, 0677ms total)
T40DC 000:978 JLINK_WriteReg(R14, 0x20000001)  returns 0x00 (0000ms, 0677ms total)
T40DC 000:978 JLINK_WriteReg(R15 (PC), 0x200000D8)  returns 0x00 (0000ms, 0677ms total)
T40DC 000:978 JLINK_WriteReg(XPSR, 0x01000000)  returns 0x00 (0000ms, 0677ms total)
T40DC 000:978 JLINK_WriteReg(MSP, 0x20002000)  returns 0x00 (0000ms, 0677ms total)
T40DC 000:978 JLINK_WriteReg(PSP, 0x20002000)  returns 0x00 (0000ms, 0677ms total)
T40DC 000:978 JLINK_WriteReg(CFBP, 0x00000000)  returns 0x00 (0000ms, 0677ms total)
T40DC 000:978 JLINK_SetBPEx(Addr = 0x20000000, Type = 0xFFFFFFF2)  returns 0x00000009 (0000ms, 0677ms total)
T40DC 000:978 JLINK_Go() -- CPU_ReadMem(4 bytes @ 0xE0001000) (0002ms, 0679ms total)
T40DC 000:981 JLINK_IsHalted()  returns FALSE (0000ms, 0680ms total)
T40DC 000:983 JLINK_IsHalted() -- CPU_ReadMem(2 bytes @ 0x20000000)  returns TRUE (0006ms, 0686ms total)
T40DC 000:989 JLINK_ReadReg(R15 (PC))  returns 0x20000000 (0000ms, 0680ms total)
T40DC 000:989 JLINK_ClrBPEx(BPHandle = 0x00000009)  returns 0x00 (0000ms, 0680ms total)
T40DC 000:989 JLINK_ReadReg(R0)  returns 0x00000000 (0000ms, 0680ms total)
T40DC 000:992 JLINK_WriteReg(R0, 0x00027000)  returns 0x00 (0000ms, 0680ms total)
T40DC 000:992 JLINK_WriteReg(R1, 0x00001000)  returns 0x00 (0000ms, 0680ms total)
T40DC 000:992 JLINK_WriteReg(R2, 0x000000FF)  returns 0x00 (0000ms, 0680ms total)
T40DC 000:992 JLINK_WriteReg(R3, 0x00000000)  returns 0x00 (0000ms, 0680ms total)
T40DC 000:992 JLINK_WriteReg(R4, 0x00000000)  returns 0x00 (0000ms, 0680ms total)
T40DC 000:992 JLINK_WriteReg(R5, 0x00000000)  returns 0x00 (0000ms, 0680ms total)
T40DC 000:992 JLINK_WriteReg(R6, 0x00000000)  returns 0x00 (0000ms, 0680ms total)
T40DC 000:992 JLINK_WriteReg(R7, 0x00000000)  returns 0x00 (0000ms, 0680ms total)
T40DC 000:992 JLINK_WriteReg(R8, 0x00000000)  returns 0x00 (0000ms, 0680ms total)
T40DC 000:992 JLINK_WriteReg(R9, 0x20000230)  returns 0x00 (0000ms, 0680ms total)
T40DC 000:992 JLINK_WriteReg(R10, 0x00000000)  returns 0x00 (0000ms, 0680ms total)
T40DC 000:992 JLINK_WriteReg(R11, 0x00000000)  returns 0x00 (0000ms, 0680ms total)
T40DC 000:992 JLINK_WriteReg(R12, 0x00000000)  returns 0x00 (0000ms, 0680ms total)
T40DC 000:992 JLINK_WriteReg(R13 (SP), 0x20002000)  returns 0x00 (0000ms, 0680ms total)
T40DC 000:992 JLINK_WriteReg(R14, 0x20000001)  returns 0x00 (0000ms, 0680ms total)
T40DC 000:992 JLINK_WriteReg(R15 (PC), 0x2000011A)  returns 0x00 (0000ms, 0680ms total)
T40DC 000:992 JLINK_WriteReg(XPSR, 0x01000000)  returns 0x00 (0000ms, 0680ms total)
T40DC 000:992 JLINK_WriteReg(MSP, 0x20002000)  returns 0x00 (0000ms, 0680ms total)
T40DC 000:992 JLINK_WriteReg(PSP, 0x20002000)  returns 0x00 (0000ms, 0680ms total)
T40DC 000:992 JLINK_WriteReg(CFBP, 0x00000000)  returns 0x00 (0000ms, 0680ms total)
T40DC 000:992 JLINK_SetBPEx(Addr = 0x20000000, Type = 0xFFFFFFF2)  returns 0x0000000A (0000ms, 0680ms total)
T40DC 000:992 JLINK_Go() -- CPU_ReadMem(4 bytes @ 0xE0001000) (0004ms, 0684ms total)
T40DC 000:996 JLINK_IsHalted() -- CPU_ReadMem(2 bytes @ 0x20000000)  returns TRUE (0007ms, 0691ms total)
T40DC 001:003 JLINK_ReadReg(R15 (PC))  returns 0x20000000 (0000ms, 0684ms total)
T40DC 001:003 JLINK_ClrBPEx(BPHandle = 0x0000000A)  returns 0x00 (0000ms, 0684ms total)
T40DC 001:003 JLINK_ReadReg(R0)  returns 0x00000001 (0000ms, 0684ms total)
T40DC 001:003 JLINK_WriteReg(R0, 0x00027000)  returns 0x00 (0000ms, 0684ms total)
T40DC 001:003 JLINK_WriteReg(R1, 0x00001000)  returns 0x00 (0000ms, 0684ms total)
T40DC 001:003 JLINK_WriteReg(R2, 0x000000FF)  returns 0x00 (0000ms, 0684ms total)
T40DC 001:003 JLINK_WriteReg(R3, 0x00000000)  returns 0x00 (0000ms, 0684ms total)
T40DC 001:003 JLINK_WriteReg(R4, 0x00000000)  returns 0x00 (0000ms, 0684ms total)
T40DC 001:003 JLINK_WriteReg(R5, 0x00000000)  returns 0x00 (0000ms, 0684ms total)
T40DC 001:003 JLINK_WriteReg(R6, 0x00000000)  returns 0x00 (0000ms, 0684ms total)
T40DC 001:003 JLINK_WriteReg(R7, 0x00000000)  returns 0x00 (0000ms, 0684ms total)
T40DC 001:003 JLINK_WriteReg(R8, 0x00000000)  returns 0x00 (0000ms, 0684ms total)
T40DC 001:003 JLINK_WriteReg(R9, 0x20000230)  returns 0x00 (0000ms, 0684ms total)
T40DC 001:003 JLINK_WriteReg(R10, 0x00000000)  returns 0x00 (0000ms, 0684ms total)
T40DC 001:003 JLINK_WriteReg(R11, 0x00000000)  returns 0x00 (0000ms, 0684ms total)
T40DC 001:003 JLINK_WriteReg(R12, 0x00000000)  returns 0x00 (0000ms, 0684ms total)
T40DC 001:003 JLINK_WriteReg(R13 (SP), 0x20002000)  returns 0x00 (0000ms, 0684ms total)
T40DC 001:003 JLINK_WriteReg(R14, 0x20000001)  returns 0x00 (0000ms, 0684ms total)
T40DC 001:003 JLINK_WriteReg(R15 (PC), 0x200000D8)  returns 0x00 (0000ms, 0684ms total)
T40DC 001:003 JLINK_WriteReg(XPSR, 0x01000000)  returns 0x00 (0000ms, 0684ms total)
T40DC 001:003 JLINK_WriteReg(MSP, 0x20002000)  returns 0x00 (0000ms, 0684ms total)
T40DC 001:003 JLINK_WriteReg(PSP, 0x20002000)  returns 0x00 (0000ms, 0684ms total)
T40DC 001:003 JLINK_WriteReg(CFBP, 0x00000000)  returns 0x00 (0000ms, 0684ms total)
T40DC 001:003 JLINK_SetBPEx(Addr = 0x20000000, Type = 0xFFFFFFF2)  returns 0x0000000B (0000ms, 0684ms total)
T40DC 001:003 JLINK_Go() -- CPU_ReadMem(4 bytes @ 0xE0001000) (0003ms, 0687ms total)
T40DC 001:006 JLINK_IsHalted()  returns FALSE (0001ms, 0688ms total)
T40DC 001:011 JLINK_IsHalted() -- CPU_ReadMem(2 bytes @ 0x20000000)  returns TRUE (0006ms, 0693ms total)
T40DC 001:018 JLINK_ReadReg(R15 (PC))  returns 0x20000000 (0000ms, 0687ms total)
T40DC 001:018 JLINK_ClrBPEx(BPHandle = 0x0000000B)  returns 0x00 (0000ms, 0687ms total)
T40DC 001:018 JLINK_ReadReg(R0)  returns 0x00000000 (0000ms, 0687ms total)
T40DC 001:020 JLINK_WriteReg(R0, 0x00028000)  returns 0x00 (0000ms, 0687ms total)
T40DC 001:020 JLINK_WriteReg(R1, 0x00001000)  returns 0x00 (0000ms, 0687ms total)
T40DC 001:020 JLINK_WriteReg(R2, 0x000000FF)  returns 0x00 (0000ms, 0687ms total)
T40DC 001:020 JLINK_WriteReg(R3, 0x00000000)  returns 0x00 (0000ms, 0687ms total)
T40DC 001:020 JLINK_WriteReg(R4, 0x00000000)  returns 0x00 (0000ms, 0687ms total)
T40DC 001:020 JLINK_WriteReg(R5, 0x00000000)  returns 0x00 (0000ms, 0687ms total)
T40DC 001:020 JLINK_WriteReg(R6, 0x00000000)  returns 0x00 (0000ms, 0687ms total)
T40DC 001:020 JLINK_WriteReg(R7, 0x00000000)  returns 0x00 (0000ms, 0687ms total)
T40DC 001:020 JLINK_WriteReg(R8, 0x00000000)  returns 0x00 (0000ms, 0687ms total)
T40DC 001:020 JLINK_WriteReg(R9, 0x20000230)  returns 0x00 (0000ms, 0687ms total)
T40DC 001:020 JLINK_WriteReg(R10, 0x00000000)  returns 0x00 (0000ms, 0687ms total)
T40DC 001:020 JLINK_WriteReg(R11, 0x00000000)  returns 0x00 (0000ms, 0687ms total)
T40DC 001:020 JLINK_WriteReg(R12, 0x00000000)  returns 0x00 (0000ms, 0687ms total)
T40DC 001:020 JLINK_WriteReg(R13 (SP), 0x20002000)  returns 0x00 (0000ms, 0687ms total)
T40DC 001:020 JLINK_WriteReg(R14, 0x20000001)  returns 0x00 (0000ms, 0687ms total)
T40DC 001:020 JLINK_WriteReg(R15 (PC), 0x2000011A)  returns 0x00 (0000ms, 0687ms total)
T40DC 001:020 JLINK_WriteReg(XPSR, 0x01000000)  returns 0x00 (0000ms, 0687ms total)
T40DC 001:020 JLINK_WriteReg(MSP, 0x20002000)  returns 0x00 (0000ms, 0687ms total)
T40DC 001:020 JLINK_WriteReg(PSP, 0x20002000)  returns 0x00 (0000ms, 0687ms total)
T40DC 001:020 JLINK_WriteReg(CFBP, 0x00000000)  returns 0x00 (0000ms, 0687ms total)
T40DC 001:020 JLINK_SetBPEx(Addr = 0x20000000, Type = 0xFFFFFFF2)  returns 0x0000000C (0000ms, 0687ms total)
T40DC 001:020 JLINK_Go() -- CPU_ReadMem(4 bytes @ 0xE0001000) (0004ms, 0691ms total)
T40DC 001:024 JLINK_IsHalted() -- CPU_ReadMem(2 bytes @ 0x20000000)  returns TRUE (0007ms, 0698ms total)
T40DC 001:031 JLINK_ReadReg(R15 (PC))  returns 0x20000000 (0000ms, 0691ms total)
T40DC 001:031 JLINK_ClrBPEx(BPHandle = 0x0000000C)  returns 0x00 (0000ms, 0691ms total)
T40DC 001:031 JLINK_ReadReg(R0)  returns 0x00000001 (0000ms, 0691ms total)
T40DC 001:031 JLINK_WriteReg(R0, 0x00028000)  returns 0x00 (0000ms, 0691ms total)
T40DC 001:031 JLINK_WriteReg(R1, 0x00001000)  returns 0x00 (0000ms, 0691ms total)
T40DC 001:031 JLINK_WriteReg(R2, 0x000000FF)  returns 0x00 (0000ms, 0691ms total)
T40DC 001:031 JLINK_WriteReg(R3, 0x00000000)  returns 0x00 (0000ms, 0691ms total)
T40DC 001:031 JLINK_WriteReg(R4, 0x00000000)  returns 0x00 (0000ms, 0691ms total)
T40DC 001:031 JLINK_WriteReg(R5, 0x00000000)  returns 0x00 (0000ms, 0691ms total)
T40DC 001:031 JLINK_WriteReg(R6, 0x00000000)  returns 0x00 (0000ms, 0691ms total)
T40DC 001:031 JLINK_WriteReg(R7, 0x00000000)  returns 0x00 (0000ms, 0691ms total)
T40DC 001:031 JLINK_WriteReg(R8, 0x00000000)  returns 0x00 (0000ms, 0691ms total)
T40DC 001:031 JLINK_WriteReg(R9, 0x20000230)  returns 0x00 (0000ms, 0691ms total)
T40DC 001:031 JLINK_WriteReg(R10, 0x00000000)  returns 0x00 (0000ms, 0691ms total)
T40DC 001:031 JLINK_WriteReg(R11, 0x00000000)  returns 0x00 (0000ms, 0691ms total)
T40DC 001:031 JLINK_WriteReg(R12, 0x00000000)  returns 0x00 (0000ms, 0691ms total)
T40DC 001:031 JLINK_WriteReg(R13 (SP), 0x20002000)  returns 0x00 (0001ms, 0692ms total)
T40DC 001:032 JLINK_WriteReg(R14, 0x20000001)  returns 0x00 (0000ms, 0692ms total)
T40DC 001:032 JLINK_WriteReg(R15 (PC), 0x200000D8)  returns 0x00 (0000ms, 0692ms total)
T40DC 001:032 JLINK_WriteReg(XPSR, 0x01000000)  returns 0x00 (0000ms, 0692ms total)
T40DC 001:032 JLINK_WriteReg(MSP, 0x20002000)  returns 0x00 (0000ms, 0692ms total)
T40DC 001:032 JLINK_WriteReg(PSP, 0x20002000)  returns 0x00 (0000ms, 0692ms total)
T40DC 001:032 JLINK_WriteReg(CFBP, 0x00000000)  returns 0x00 (0000ms, 0692ms total)
T40DC 001:032 JLINK_SetBPEx(Addr = 0x20000000, Type = 0xFFFFFFF2)  returns 0x0000000D (0000ms, 0692ms total)
T40DC 001:032 JLINK_Go() -- CPU_ReadMem(4 bytes @ 0xE0001000) (0002ms, 0694ms total)
T40DC 001:034 JLINK_IsHalted()  returns FALSE (0001ms, 0695ms total)
T40DC 001:037 JLINK_IsHalted() -- CPU_ReadMem(2 bytes @ 0x20000000)  returns TRUE (0007ms, 0701ms total)
T40DC 001:044 JLINK_ReadReg(R15 (PC))  returns 0x20000000 (0000ms, 0694ms total)
T40DC 001:044 JLINK_ClrBPEx(BPHandle = 0x0000000D)  returns 0x00 (0000ms, 0694ms total)
T40DC 001:044 JLINK_ReadReg(R0)  returns 0x00000000 (0000ms, 0694ms total)
T40DC 001:045 JLINK_WriteReg(R0, 0x00029000)  returns 0x00 (0000ms, 0694ms total)
T40DC 001:045 JLINK_WriteReg(R1, 0x00001000)  returns 0x00 (0000ms, 0694ms total)
T40DC 001:046 JLINK_WriteReg(R2, 0x000000FF)  returns 0x00 (0000ms, 0695ms total)
T40DC 001:046 JLINK_WriteReg(R3, 0x00000000)  returns 0x00 (0000ms, 0695ms total)
T40DC 001:046 JLINK_WriteReg(R4, 0x00000000)  returns 0x00 (0000ms, 0695ms total)
T40DC 001:046 JLINK_WriteReg(R5, 0x00000000)  returns 0x00 (0000ms, 0695ms total)
T40DC 001:046 JLINK_WriteReg(R6, 0x00000000)  returns 0x00 (0000ms, 0695ms total)
T40DC 001:046 JLINK_WriteReg(R7, 0x00000000)  returns 0x00 (0000ms, 0695ms total)
T40DC 001:046 JLINK_WriteReg(R8, 0x00000000)  returns 0x00 (0000ms, 0695ms total)
T40DC 001:046 JLINK_WriteReg(R9, 0x20000230)  returns 0x00 (0000ms, 0695ms total)
T40DC 001:046 JLINK_WriteReg(R10, 0x00000000)  returns 0x00 (0000ms, 0695ms total)
T40DC 001:046 JLINK_WriteReg(R11, 0x00000000)  returns 0x00 (0000ms, 0695ms total)
T40DC 001:046 JLINK_WriteReg(R12, 0x00000000)  returns 0x00 (0000ms, 0695ms total)
T40DC 001:046 JLINK_WriteReg(R13 (SP), 0x20002000)  returns 0x00 (0000ms, 0695ms total)
T40DC 001:046 JLINK_WriteReg(R14, 0x20000001)  returns 0x00 (0000ms, 0695ms total)
T40DC 001:046 JLINK_WriteReg(R15 (PC), 0x2000011A)  returns 0x00 (0000ms, 0695ms total)
T40DC 001:046 JLINK_WriteReg(XPSR, 0x01000000)  returns 0x00 (0000ms, 0695ms total)
T40DC 001:046 JLINK_WriteReg(MSP, 0x20002000)  returns 0x00 (0000ms, 0695ms total)
T40DC 001:046 JLINK_WriteReg(PSP, 0x20002000)  returns 0x00 (0000ms, 0695ms total)
T40DC 001:046 JLINK_WriteReg(CFBP, 0x00000000)  returns 0x00 (0000ms, 0695ms total)
T40DC 001:046 JLINK_SetBPEx(Addr = 0x20000000, Type = 0xFFFFFFF2)  returns 0x0000000E (0000ms, 0695ms total)
T40DC 001:046 JLINK_Go() -- CPU_ReadMem(4 bytes @ 0xE0001000) (0004ms, 0699ms total)
T40DC 001:050 JLINK_IsHalted() -- CPU_ReadMem(2 bytes @ 0x20000000)  returns TRUE (0007ms, 0706ms total)
T40DC 001:057 JLINK_ReadReg(R15 (PC))  returns 0x20000000 (0000ms, 0699ms total)
T40DC 001:057 JLINK_ClrBPEx(BPHandle = 0x0000000E)  returns 0x00 (0000ms, 0699ms total)
T40DC 001:057 JLINK_ReadReg(R0)  returns 0x00000001 (0000ms, 0699ms total)
T40DC 001:057 JLINK_WriteReg(R0, 0x00029000)  returns 0x00 (0000ms, 0699ms total)
T40DC 001:057 JLINK_WriteReg(R1, 0x00001000)  returns 0x00 (0000ms, 0699ms total)
T40DC 001:057 JLINK_WriteReg(R2, 0x000000FF)  returns 0x00 (0000ms, 0699ms total)
T40DC 001:057 JLINK_WriteReg(R3, 0x00000000)  returns 0x00 (0000ms, 0699ms total)
T40DC 001:057 JLINK_WriteReg(R4, 0x00000000)  returns 0x00 (0000ms, 0699ms total)
T40DC 001:057 JLINK_WriteReg(R5, 0x00000000)  returns 0x00 (0000ms, 0699ms total)
T40DC 001:057 JLINK_WriteReg(R6, 0x00000000)  returns 0x00 (0000ms, 0699ms total)
T40DC 001:057 JLINK_WriteReg(R7, 0x00000000)  returns 0x00 (0000ms, 0699ms total)
T40DC 001:057 JLINK_WriteReg(R8, 0x00000000)  returns 0x00 (0000ms, 0699ms total)
T40DC 001:057 JLINK_WriteReg(R9, 0x20000230)  returns 0x00 (0000ms, 0699ms total)
T40DC 001:057 JLINK_WriteReg(R10, 0x00000000)  returns 0x00 (0000ms, 0699ms total)
T40DC 001:057 JLINK_WriteReg(R11, 0x00000000)  returns 0x00 (0000ms, 0699ms total)
T40DC 001:057 JLINK_WriteReg(R12, 0x00000000)  returns 0x00 (0000ms, 0699ms total)
T40DC 001:057 JLINK_WriteReg(R13 (SP), 0x20002000)  returns 0x00 (0000ms, 0699ms total)
T40DC 001:057 JLINK_WriteReg(R14, 0x20000001)  returns 0x00 (0000ms, 0699ms total)
T40DC 001:057 JLINK_WriteReg(R15 (PC), 0x200000D8)  returns 0x00 (0000ms, 0699ms total)
T40DC 001:057 JLINK_WriteReg(XPSR, 0x01000000)  returns 0x00 (0000ms, 0699ms total)
T40DC 001:057 JLINK_WriteReg(MSP, 0x20002000)  returns 0x00 (0000ms, 0699ms total)
T40DC 001:057 JLINK_WriteReg(PSP, 0x20002000)  returns 0x00 (0000ms, 0699ms total)
T40DC 001:057 JLINK_WriteReg(CFBP, 0x00000000)  returns 0x00 (0000ms, 0699ms total)
T40DC 001:057 JLINK_SetBPEx(Addr = 0x20000000, Type = 0xFFFFFFF2)  returns 0x0000000F (0000ms, 0699ms total)
T40DC 001:057 JLINK_Go() -- CPU_ReadMem(4 bytes @ 0xE0001000) (0004ms, 0703ms total)
T40DC 001:061 JLINK_IsHalted()  returns FALSE (0000ms, 0703ms total)
T40DC 001:064 JLINK_IsHalted() -- CPU_ReadMem(2 bytes @ 0x20000000)  returns TRUE (0007ms, 0710ms total)
T40DC 001:071 JLINK_ReadReg(R15 (PC))  returns 0x20000000 (0000ms, 0703ms total)
T40DC 001:071 JLINK_ClrBPEx(BPHandle = 0x0000000F)  returns 0x00 (0000ms, 0703ms total)
T40DC 001:071 JLINK_ReadReg(R0)  returns 0x00000000 (0000ms, 0703ms total)
T40DC 001:073 JLINK_WriteReg(R0, 0x0002A000)  returns 0x00 (0000ms, 0703ms total)
T40DC 001:073 JLINK_WriteReg(R1, 0x00001000)  returns 0x00 (0000ms, 0703ms total)
T40DC 001:073 JLINK_WriteReg(R2, 0x000000FF)  returns 0x00 (0000ms, 0703ms total)
T40DC 001:073 JLINK_WriteReg(R3, 0x00000000)  returns 0x00 (0000ms, 0703ms total)
T40DC 001:073 JLINK_WriteReg(R4, 0x00000000)  returns 0x00 (0000ms, 0703ms total)
T40DC 001:073 JLINK_WriteReg(R5, 0x00000000)  returns 0x00 (0000ms, 0703ms total)
T40DC 001:073 JLINK_WriteReg(R6, 0x00000000)  returns 0x00 (0000ms, 0703ms total)
T40DC 001:073 JLINK_WriteReg(R7, 0x00000000)  returns 0x00 (0000ms, 0703ms total)
T40DC 001:073 JLINK_WriteReg(R8, 0x00000000)  returns 0x00 (0000ms, 0703ms total)
T40DC 001:073 JLINK_WriteReg(R9, 0x20000230)  returns 0x00 (0000ms, 0703ms total)
T40DC 001:073 JLINK_WriteReg(R10, 0x00000000)  returns 0x00 (0000ms, 0703ms total)
T40DC 001:073 JLINK_WriteReg(R11, 0x00000000)  returns 0x00 (0000ms, 0703ms total)
T40DC 001:073 JLINK_WriteReg(R12, 0x00000000)  returns 0x00 (0000ms, 0703ms total)
T40DC 001:073 JLINK_WriteReg(R13 (SP), 0x20002000)  returns 0x00 (0000ms, 0703ms total)
T40DC 001:073 JLINK_WriteReg(R14, 0x20000001)  returns 0x00 (0000ms, 0703ms total)
T40DC 001:073 JLINK_WriteReg(R15 (PC), 0x2000011A)  returns 0x00 (0000ms, 0703ms total)
T40DC 001:073 JLINK_WriteReg(XPSR, 0x01000000)  returns 0x00 (0000ms, 0703ms total)
T40DC 001:073 JLINK_WriteReg(MSP, 0x20002000)  returns 0x00 (0000ms, 0703ms total)
T40DC 001:073 JLINK_WriteReg(PSP, 0x20002000)  returns 0x00 (0000ms, 0703ms total)
T40DC 001:073 JLINK_WriteReg(CFBP, 0x00000000)  returns 0x00 (0000ms, 0703ms total)
T40DC 001:073 JLINK_SetBPEx(Addr = 0x20000000, Type = 0xFFFFFFF2)  returns 0x00000010 (0000ms, 0703ms total)
T40DC 001:073 JLINK_Go() -- CPU_ReadMem(4 bytes @ 0xE0001000) (0004ms, 0707ms total)
T40DC 001:077 JLINK_IsHalted() -- CPU_ReadMem(2 bytes @ 0x20000000)  returns TRUE (0007ms, 0714ms total)
T40DC 001:084 JLINK_ReadReg(R15 (PC))  returns 0x20000000 (0000ms, 0707ms total)
T40DC 001:084 JLINK_ClrBPEx(BPHandle = 0x00000010)  returns 0x00 (0000ms, 0707ms total)
T40DC 001:084 JLINK_ReadReg(R0)  returns 0x00000001 (0000ms, 0707ms total)
T40DC 001:084 JLINK_WriteReg(R0, 0x0002A000)  returns 0x00 (0000ms, 0707ms total)
T40DC 001:084 JLINK_WriteReg(R1, 0x00001000)  returns 0x00 (0000ms, 0707ms total)
T40DC 001:084 JLINK_WriteReg(R2, 0x000000FF)  returns 0x00 (0000ms, 0707ms total)
T40DC 001:084 JLINK_WriteReg(R3, 0x00000000)  returns 0x00 (0000ms, 0707ms total)
T40DC 001:084 JLINK_WriteReg(R4, 0x00000000)  returns 0x00 (0000ms, 0707ms total)
T40DC 001:084 JLINK_WriteReg(R5, 0x00000000)  returns 0x00 (0000ms, 0707ms total)
T40DC 001:084 JLINK_WriteReg(R6, 0x00000000)  returns 0x00 (0000ms, 0707ms total)
T40DC 001:084 JLINK_WriteReg(R7, 0x00000000)  returns 0x00 (0000ms, 0707ms total)
T40DC 001:084 JLINK_WriteReg(R8, 0x00000000)  returns 0x00 (0000ms, 0707ms total)
T40DC 001:084 JLINK_WriteReg(R9, 0x20000230)  returns 0x00 (0000ms, 0707ms total)
T40DC 001:084 JLINK_WriteReg(R10, 0x00000000)  returns 0x00 (0000ms, 0707ms total)
T40DC 001:084 JLINK_WriteReg(R11, 0x00000000)  returns 0x00 (0000ms, 0707ms total)
T40DC 001:084 JLINK_WriteReg(R12, 0x00000000)  returns 0x00 (0000ms, 0707ms total)
T40DC 001:084 JLINK_WriteReg(R13 (SP), 0x20002000)  returns 0x00 (0000ms, 0707ms total)
T40DC 001:084 JLINK_WriteReg(R14, 0x20000001)  returns 0x00 (0000ms, 0707ms total)
T40DC 001:084 JLINK_WriteReg(R15 (PC), 0x200000D8)  returns 0x00 (0000ms, 0707ms total)
T40DC 001:084 JLINK_WriteReg(XPSR, 0x01000000)  returns 0x00 (0000ms, 0707ms total)
T40DC 001:084 JLINK_WriteReg(MSP, 0x20002000)  returns 0x00 (0000ms, 0707ms total)
T40DC 001:084 JLINK_WriteReg(PSP, 0x20002000)  returns 0x00 (0000ms, 0707ms total)
T40DC 001:084 JLINK_WriteReg(CFBP, 0x00000000)  returns 0x00 (0000ms, 0707ms total)
T40DC 001:084 JLINK_SetBPEx(Addr = 0x20000000, Type = 0xFFFFFFF2)  returns 0x00000011 (0000ms, 0707ms total)
T40DC 001:084 JLINK_Go() -- CPU_ReadMem(4 bytes @ 0xE0001000) (0003ms, 0710ms total)
T40DC 001:087 JLINK_IsHalted()  returns FALSE (0001ms, 0711ms total)
T40DC 001:092 JLINK_IsHalted() -- CPU_ReadMem(2 bytes @ 0x20000000)  returns TRUE (0007ms, 0717ms total)
T40DC 001:099 JLINK_ReadReg(R15 (PC))  returns 0x20000000 (0000ms, 0710ms total)
T40DC 001:099 JLINK_ClrBPEx(BPHandle = 0x00000011)  returns 0x00 (0000ms, 0710ms total)
T40DC 001:099 JLINK_ReadReg(R0)  returns 0x00000000 (0000ms, 0710ms total)
T40DC 001:100 JLINK_WriteReg(R0, 0x00000001)  returns 0x00 (0000ms, 0710ms total)
T40DC 001:100 JLINK_WriteReg(R1, 0x00001000)  returns 0x00 (0000ms, 0710ms total)
T40DC 001:100 JLINK_WriteReg(R2, 0x000000FF)  returns 0x00 (0000ms, 0710ms total)
T40DC 001:100 JLINK_WriteReg(R3, 0x00000000)  returns 0x00 (0000ms, 0710ms total)
T40DC 001:100 JLINK_WriteReg(R4, 0x00000000)  returns 0x00 (0000ms, 0710ms total)
T40DC 001:100 JLINK_WriteReg(R5, 0x00000000)  returns 0x00 (0000ms, 0710ms total)
T40DC 001:100 JLINK_WriteReg(R6, 0x00000000)  returns 0x00 (0000ms, 0710ms total)
T40DC 001:100 JLINK_WriteReg(R7, 0x00000000)  returns 0x00 (0000ms, 0710ms total)
T40DC 001:100 JLINK_WriteReg(R8, 0x00000000)  returns 0x00 (0000ms, 0710ms total)
T40DC 001:100 JLINK_WriteReg(R9, 0x20000230)  returns 0x00 (0000ms, 0710ms total)
T40DC 001:100 JLINK_WriteReg(R10, 0x00000000)  returns 0x00 (0000ms, 0710ms total)
T40DC 001:100 JLINK_WriteReg(R11, 0x00000000)  returns 0x00 (0000ms, 0710ms total)
T40DC 001:100 JLINK_WriteReg(R12, 0x00000000)  returns 0x00 (0000ms, 0710ms total)
T40DC 001:100 JLINK_WriteReg(R13 (SP), 0x20002000)  returns 0x00 (0000ms, 0710ms total)
T40DC 001:100 JLINK_WriteReg(R14, 0x20000001)  returns 0x00 (0000ms, 0710ms total)
T40DC 001:100 JLINK_WriteReg(R15 (PC), 0x2000008E)  returns 0x00 (0000ms, 0710ms total)
T40DC 001:100 JLINK_WriteReg(XPSR, 0x01000000)  returns 0x00 (0000ms, 0710ms total)
T40DC 001:100 JLINK_WriteReg(MSP, 0x20002000)  returns 0x00 (0000ms, 0710ms total)
T40DC 001:100 JLINK_WriteReg(PSP, 0x20002000)  returns 0x00 (0000ms, 0710ms total)
T40DC 001:100 JLINK_WriteReg(CFBP, 0x00000000)  returns 0x00 (0000ms, 0710ms total)
T40DC 001:100 JLINK_SetBPEx(Addr = 0x20000000, Type = 0xFFFFFFF2)  returns 0x00000012 (0000ms, 0710ms total)
T40DC 001:100 JLINK_Go() -- CPU_ReadMem(4 bytes @ 0xE0001000) (0005ms, 0715ms total)
T40DC 001:105 JLINK_IsHalted() -- CPU_ReadMem(2 bytes @ 0x20000000)  returns TRUE (0007ms, 0722ms total)
T40DC 001:112 JLINK_ReadReg(R15 (PC))  returns 0x20000000 (0000ms, 0715ms total)
T40DC 001:112 JLINK_ClrBPEx(BPHandle = 0x00000012)  returns 0x00 (0000ms, 0715ms total)
T40DC 001:112 JLINK_ReadReg(R0)  returns 0x00000000 (0000ms, 0715ms total)
T40DC 001:201 JLINK_WriteMem(0x20000000, 0x0234 Bytes, ...) - Data: 00 BE 0A E0 0D 78 2D 06 68 40 08 24 40 00 00 D3 ... -- CPU_WriteMem(564 bytes @ 0x20000000)  returns 0x234 (0008ms, 0723ms total)
